T57E4 022:160 SEGGER J-Link V5.02c Log File (0000ms, 0275ms total)
T57E4 022:160 DLL Compiled: Sep 10 2015 17:39:31 (0000ms, 0275ms total)
T57E4 022:160 Logging started @ 2023-04-30 11:15 (0000ms, 0275ms total)
T57E4 022:160 JLINK_SetWarnOutHandler(...) (0000ms, 0275ms total)
T57E4 022:160 JLINK_OpenEx(...)
Firmware: J-Link ARM V8 compiled Nov 28 2014 13:44:46
Hardware: V8.00
Feature(s): RDI,FlashDL,FlashBP,JFlash,GDBFULL  returns O.K. (0262ms, 0537ms total)
T57E4 022:422 JLINK_GetEmuCaps()  returns 0xF9FF7BFF (0000ms, 0537ms total)
T57E4 022:423 JLINK_TIF_GetAvailable(...) (0000ms, 0537ms total)
T57E4 022:423 JLINK_SetErrorOutHandler(...) (0000ms, 0537ms total)
T57E4 022:423 JLINK_ExecCommand("ProjectFile = "D:\Ñ§Ï°\Ç¶ÈëÊ½\32\user_project\ku_projectTemplat\JLinkSettings.ini"", ...)  returns 0x00 (0001ms, 0538ms total)
T57E4 022:428 JLINK_ExecCommand("Device = STM32F103ZE", ...)Device "STM32F103ZE" selected.  returns 0x00 (0005ms, 0543ms total)
T57E4 022:433 JLINK_ExecCommand("DisableConnectionTimeout", ...)  returns 0x01 (0000ms, 0543ms total)
T57E4 022:434 JLINK_GetHardwareVersion()  returns 0x13880 (0000ms, 0543ms total)
T57E4 022:434 JLINK_GetDLLVersion()  returns 50203 (0000ms, 0543ms total)
T57E4 022:434 JLINK_GetFirmwareString(...) (0000ms, 0543ms total)
T57E4 022:439 JLINK_GetDLLVersion()  returns 50203 (0000ms, 0543ms total)
T57E4 022:439 JLINK_GetCompileDateTime() (0000ms, 0543ms total)
T57E4 022:440 JLINK_GetFirmwareString(...) (0000ms, 0543ms total)
T57E4 022:442 JLINK_GetHardwareVersion()  returns 0x13880 (0000ms, 0543ms total)
T57E4 022:453 JLINK_TIF_Select(JLINKARM_TIF_JTAG)  returns 0x00 (0002ms, 0545ms total)
T57E4 022:455 JLINK_SetSpeed(5000) (0000ms, 0545ms total)
T57E4 022:455 JLINK_GetIdData(...) >0x2F8 JTAG>TotalIRLen = 9, IRPrint = 0x0011 >0x30 JTAG> >0x210 JTAG> >0x40 JTAG> >0x40 JTAG> >0x40 JTAG> >0x30 JTAG> >0x40 JTAG> >0x40 JTAG> >0x40 JTAG> >0x40 JTAG> >0x40 JTAG> >0x40 JTAG> >0x40 JTAG> >0x40 JTAG> >0x40 JTAG> >0x40 JTAG> >0x40 JTAG> >0x40 JTAG> >0x40 JTAG> >0x2F8 JTAG>TotalIRLen = 9, IRPrint = 0x0011 >0x30 JTAG> >0x210 JTAG> >0x70 JTAG> >0x40 JTAG> >0x40 JTAG> >0x40 JTAG> >0x50 JTAG> >0x80 JTAG> >0x40 JTAG> >0x30 JTAG> >0x40 JTAG> >0x40 JTAG>
 >0x30 JTAG> >0x40 JTAG> >0x50 JTAG>Found Cortex-M3 r1p1, Little endian. -- CPU_ReadMem(4 bytes @ 0xE000EDF0) -- CPU_WriteMem(4 bytes @ 0xE000EDF0) -- CPU_ReadMem(4 bytes @ 0xE0002000)FPUnit: 6 code (BP) slots and 2 literal slots -- CPU_ReadMem(4 bytes @ 0xE000EDFC) -- CPU_WriteMem(4 bytes @ 0xE000EDFC) -- CPU_ReadMem(4 bytes @ 0xE0001000) -- CPU_WriteMem(4 bytes @ 0xE0001000) -- CPU_ReadMem(4 bytes @ 0xE000ED88) -- CPU_WriteMem(4 bytes @ 0xE000ED88) -- CPU_ReadMem(4 bytes @ 0xE000ED88)
 -- CPU_WriteMem(4 bytes @ 0xE000ED88)CoreSight components:ROMTbl 0 @ E00FF000 -- CPU_ReadMem(16 bytes @ 0xE00FF000) -- CPU_ReadMem(16 bytes @ 0xE000EFF0) -- CPU_ReadMem(16 bytes @ 0xE000EFE0)ROMTbl 0 [0]: FFF0F000, CID: B105E00D, PID: 001BB000 SCS -- CPU_ReadMem(16 bytes @ 0xE0001FF0) -- CPU_ReadMem(16 bytes @ 0xE0001FE0)ROMTbl 0 [1]: FFF02000, CID: B105E00D, PID: 001BB002 DWT -- CPU_ReadMem(16 bytes @ 0xE0002FF0) -- CPU_ReadMem(16 bytes @ 0xE0002FE0)
ROMTbl 0 [2]: FFF03000, CID: B105E00D, PID: 000BB003 FPB -- CPU_ReadMem(16 bytes @ 0xE0000FF0) -- CPU_ReadMem(16 bytes @ 0xE0000FE0)ROMTbl 0 [3]: FFF01000, CID: B105E00D, PID: 001BB001 ITM -- CPU_ReadMem(16 bytes @ 0xE00FF010) -- CPU_ReadMem(16 bytes @ 0xE0040FF0) -- CPU_ReadMem(16 bytes @ 0xE0040FE0)ROMTbl 0 [4]: FFF41000, CID: B105900D, PID: 001BB923 TPIU-Lite -- CPU_ReadMem(16 bytes @ 0xE0041FF0) -- CPU_ReadMem(16 bytes @ 0xE0041FE0)ROMTbl 0 [5]: FFF42000, CID: B105900D, PID: 101BB924 ETM-M3 ScanLen=9
 NumDevices=2 aId[0]=0x3BA00477 aIrRead[0]=0 aScanLen[0]=0 aScanRead[0]=0 (0055ms, 0600ms total)
T57E4 022:510 JLINK_JTAG_GetDeviceID(DeviceIndex = 0)  returns 0x3BA00477 (0000ms, 0600ms total)
T57E4 022:510 JLINK_JTAG_GetDeviceInfo(DeviceIndex = 0)  returns 0x00 (0000ms, 0600ms total)
T57E4 022:510 JLINK_JTAG_GetDeviceID(DeviceIndex = 1)  returns 0x6414041 (0000ms, 0600ms total)
T57E4 022:510 JLINK_JTAG_GetDeviceInfo(DeviceIndex = 1)  returns 0x00 (0000ms, 0600ms total)
T57E4 022:510 JLINK_GetDLLVersion()  returns 50203 (0000ms, 0600ms total)
T57E4 022:510 JLINK_CORE_GetFound()  returns 0x30000FF (0000ms, 0600ms total)
T57E4 022:510 JLINK_GetDebugInfo(0x100) -- Value=0xE00FF003  returns 0x00 (0000ms, 0600ms total)
T57E4 022:511 JLINK_GetDebugInfo(0x100) -- Value=0xE00FF003  returns 0x00 (0000ms, 0600ms total)
T57E4 022:511 JLINK_GetDebugInfo(0x101)  returns 0xFFFFFFFF (0001ms, 0601ms total)
T57E4 022:512 JLINK_ReadMemEx(0xE0041FF0, 0x0010 Bytes, ..., AccessWidth = 33554436) -- CPU is running -- CPU_ReadMem(16 bytes @ 0xE0041FF0) - Data: 0D 00 00 00 90 00 00 00 05 00 00 00 B1 00 00 00  returns 0x10 (0000ms, 0601ms total)
T57E4 022:512 JLINK_ReadMemEx(0xE0041FD0, 0x0020 Bytes, ..., AccessWidth = 33554436) -- CPU is running -- CPU_ReadMem(32 bytes @ 0xE0041FD0) - Data: 04 00 00 00 00 00 00 00 00 00 00 00 00 00 00 00 ...  returns 0x20 (0001ms, 0602ms total)
T57E4 022:513 JLINK_GetDebugInfo(0x102)  returns 0xFFFFFFFF (0000ms, 0602ms total)
T57E4 022:513 JLINK_GetDebugInfo(0x103)  returns 0xFFFFFFFF (0000ms, 0602ms total)
T57E4 022:513 JLINK_ReadMemEx(0xE0040FF0, 0x0010 Bytes, ..., AccessWidth = 33554436) -- CPU is running -- CPU_ReadMem(16 bytes @ 0xE0040FF0) - Data: 0D 00 00 00 90 00 00 00 05 00 00 00 B1 00 00 00  returns 0x10 (0001ms, 0603ms total)
T57E4 022:514 JLINK_GetDebugInfo(0x104)  returns 0xFFFFFFFF (0000ms, 0603ms total)
T57E4 022:514 JLINK_GetDebugInfo(0x105)  returns 0xFFFFFFFF (0000ms, 0603ms total)
T57E4 022:514 JLINK_GetDebugInfo(0x106)  returns 0xFFFFFFFF (0000ms, 0603ms total)
T57E4 022:514 JLINK_GetDebugInfo(0x107)  returns 0xFFFFFFFF (0000ms, 0603ms total)
T57E4 022:514 JLINK_GetDebugInfo(0x10C)  returns 0xFFFFFFFF (0000ms, 0603ms total)
T57E4 022:514 JLINK_GetDebugInfo(0x01)  returns 0xFFFFFFFF (0000ms, 0603ms total)
T57E4 022:514 JLINK_GetDeviceFamily()  returns 3 (0000ms, 0603ms total)
T57E4 022:514 JLINK_ReadMemU32(0xE000ED00, 0x0001 Items, ...) -- CPU is running -- CPU_ReadMem(4 bytes @ 0xE000ED00) - Data: 31 C2 1F 41  returns 0x01 (0001ms, 0604ms total)
T57E4 022:515 JLINK_GetDebugInfo(0x10F)  returns 0xFFFFFFFF (0000ms, 0604ms total)
T57E4 022:515 JLINK_SetResetType(JLINKARM_RESET_TYPE_NORMAL)  returns JLINKARM_RESET_TYPE_NORMAL (0000ms, 0604ms total)
T57E4 022:515 JLINK_Reset() -- CPU is running -- CPU_WriteMem(4 bytes @ 0xE000EDF0) -- CPU is running -- CPU_WriteMem(4 bytes @ 0xE000EDFC) -- CPU is running -- CPU_WriteMem(4 bytes @ 0xE000ED0C) -- CPU is running -- CPU_ReadMem(4 bytes @ 0xE000EDF0) -- CPU is running -- CPU_ReadMem(4 bytes @ 0xE000EDF0) -- CPU is running -- CPU_WriteMem(4 bytes @ 0xE000EDF0) -- CPU is running -- CPU_WriteMem(4 bytes @ 0xE000EDFC) -- CPU is running -- CPU_ReadMem(4 bytes @ 0xE000EDF0) >0x80 JTAG> >0x40 JTAG> >0x30 JTAG>
 >0x40 JTAG> >0x50 JTAG> >0x40 JTAG> -- CPU_WriteMem(4 bytes @ 0xE000EDFC) -- CPU_WriteMem(4 bytes @ 0xE0001028) -- CPU_WriteMem(4 bytes @ 0xE0001038) -- CPU_WriteMem(4 bytes @ 0xE0001048) -- CPU_WriteMem(4 bytes @ 0xE0001058) -- CPU_WriteMem(4 bytes @ 0xE0002000) -- CPU_ReadMem(4 bytes @ 0xE000EDFC) -- CPU_ReadMem(4 bytes @ 0xE0001000) (0027ms, 0631ms total)
T57E4 022:542 JLINK_Halt()  returns 0x00 (0000ms, 0631ms total)
T57E4 022:542 JLINK_ReadMemU32(0xE000EDF0, 0x0001 Items, ...) -- CPU_ReadMem(4 bytes @ 0xE000EDF0) - Data: 03 00 03 00  returns 0x01 (0001ms, 0632ms total)
T57E4 022:543 JLINK_WriteU32(0xE000EDF0, 0xA05F0003) -- CPU_WriteMem(4 bytes @ 0xE000EDF0)  returns 0x00 (0000ms, 0632ms total)
T57E4 022:543 JLINK_WriteU32(0xE000EDFC, 0x01000000) -- CPU_WriteMem(4 bytes @ 0xE000EDFC)  returns 0x00 (0001ms, 0633ms total)
T57E4 022:550 JLINK_GetHWStatus(...)  returns 0x00 (0000ms, 0633ms total)
T57E4 022:556 JLINK_GetNumBPUnits(Type = 0xFFFFFF00)  returns 0x06 (0000ms, 0633ms total)
T57E4 022:556 JLINK_GetNumBPUnits(Type = 0xF0)  returns 0x2000 (0000ms, 0633ms total)
T57E4 022:556 JLINK_GetNumWPUnits()  returns 0x04 (0000ms, 0633ms total)
T57E4 022:560 JLINK_GetSpeed()  returns 0x12C0 (0000ms, 0633ms total)
T57E4 022:562 JLINK_ReadMemU32(0xE000E004, 0x0001 Items, ...) -- CPU_ReadMem(4 bytes @ 0xE000E004) - Data: 01 00 00 00  returns 0x01 (0000ms, 0633ms total)
T57E4 022:562 JLINK_ReadMemU32(0xE000E004, 0x0001 Items, ...) -- CPU_ReadMem(4 bytes @ 0xE000E004) - Data: 01 00 00 00  returns 0x01 (0002ms, 0635ms total)
T57E4 022:564 JLINK_WriteMemEx(0xE0001000, 0x001C Bytes, ..., AccessWidth = 33554436) - Data: 01 00 00 00 00 00 00 00 00 00 00 00 00 00 00 00 ... -- CPU_WriteMem(28 bytes @ 0xE0001000)  returns 0x1C (0001ms, 0636ms total)
T57E4 022:565 JLINK_Halt()  returns 0x00 (0000ms, 0636ms total)
T57E4 022:565 JLINK_IsHalted()  returns TRUE (0000ms, 0636ms total)
T57E4 022:567 JLINK_WriteMem(0x20000000, 0x0164 Bytes, ...) - Data: 00 BE 0A E0 0D 78 2D 06 68 40 08 24 40 00 00 D3 ... -- CPU_WriteMem(356 bytes @ 0x20000000)  returns 0x164 (0003ms, 0639ms total)
T57E4 022:570 JLINK_WriteReg(R0, 0x08000000)  returns 0x00 (0001ms, 0640ms total)
T57E4 022:571 JLINK_WriteReg(R1, 0x00B71B00)  returns 0x00 (0000ms, 0640ms total)
T57E4 022:571 JLINK_WriteReg(R2, 0x00000001)  returns 0x00 (0000ms, 0640ms total)
T57E4 022:571 JLINK_WriteReg(R3, 0x00000000)  returns 0x00 (0000ms, 0640ms total)
T57E4 022:571 JLINK_WriteReg(R4, 0x00000000)  returns 0x00 (0000ms, 0640ms total)
T57E4 022:571 JLINK_WriteReg(R5, 0x00000000)  returns 0x00 (0000ms, 0640ms total)
T57E4 022:571 JLINK_WriteReg(R6, 0x00000000)  returns 0x00 (0000ms, 0640ms total)
T57E4 022:571 JLINK_WriteReg(R7, 0x00000000)  returns 0x00 (0000ms, 0640ms total)
T57E4 022:571 JLINK_WriteReg(R8, 0x00000000)  returns 0x00 (0000ms, 0640ms total)
T57E4 022:571 JLINK_WriteReg(R9, 0x20000160)  returns 0x00 (0000ms, 0640ms total)
T57E4 022:571 JLINK_WriteReg(R10, 0x00000000)  returns 0x00 (0000ms, 0640ms total)
T57E4 022:571 JLINK_WriteReg(R11, 0x00000000)  returns 0x00 (0000ms, 0640ms total)
T57E4 022:571 JLINK_WriteReg(R12, 0x00000000)  returns 0x00 (0000ms, 0640ms total)
T57E4 022:571 JLINK_WriteReg(R13 (SP), 0x20001000)  returns 0x00 (0000ms, 0640ms total)
T57E4 022:571 JLINK_WriteReg(R14, 0x20000001)  returns 0x00 (0000ms, 0640ms total)
T57E4 022:571 JLINK_WriteReg(R15 (PC), 0x20000038)  returns 0x00 (0000ms, 0640ms total)
T57E4 022:571 JLINK_WriteReg(XPSR, 0x01000000)  returns 0x00 (0000ms, 0640ms total)
T57E4 022:571 JLINK_WriteReg(MSP, 0x20001000)  returns 0x00 (0000ms, 0640ms total)
T57E4 022:571 JLINK_WriteReg(PSP, 0x20001000)  returns 0x00 (0000ms, 0640ms total)
T57E4 022:571 JLINK_WriteReg(CFBP, 0x00000000)  returns 0x00 (0000ms, 0640ms total)
T57E4 022:571 JLINK_SetBPEx(Addr = 0x20000000, Type = 0xFFFFFFF2) -- CPU_ReadMem(2 bytes @ 0x20000000)  returns 0x00000001 (0001ms, 0641ms total)
T57E4 022:572 JLINK_Go() -- CPU_WriteMem(2 bytes @ 0x20000000) -- CPU_ReadMem(4 bytes @ 0xE0001000) -- CPU_WriteMem(4 bytes @ 0xE0002008) -- CPU_WriteMem(4 bytes @ 0xE000200C) -- CPU_WriteMem(4 bytes @ 0xE0002010) -- CPU_WriteMem(4 bytes @ 0xE0002014) -- CPU_WriteMem(4 bytes @ 0xE0002018) -- CPU_WriteMem(4 bytes @ 0xE000201C) -- CPU_WriteMem(4 bytes @ 0xE0001004) (0006ms, 0647ms total)
T57E4 022:578 JLINK_IsHalted() -- CPU_ReadMem(2 bytes @ 0x20000000)  returns TRUE (0004ms, 0651ms total)
T57E4 022:582 JLINK_ReadReg(R15 (PC))  returns 0x20000000 (0000ms, 0647ms total)
T57E4 022:582 JLINK_ClrBPEx(BPHandle = 0x00000001)  returns 0x00 (0000ms, 0647ms total)
T57E4 022:582 JLINK_ReadReg(R0)  returns 0x00000000 (0000ms, 0647ms total)
T57E4 022:583 JLINK_WriteReg(R0, 0x08000000)  returns 0x00 (0000ms, 0647ms total)
T57E4 022:583 JLINK_WriteReg(R1, 0x00000800)  returns 0x00 (0000ms, 0647ms total)
T57E4 022:583 JLINK_WriteReg(R2, 0x000000FF)  returns 0x00 (0000ms, 0647ms total)
T57E4 022:583 JLINK_WriteReg(R3, 0x00000000)  returns 0x00 (0000ms, 0647ms total)
T57E4 022:583 JLINK_WriteReg(R4, 0x00000000)  returns 0x00 (0000ms, 0647ms total)
T57E4 022:583 JLINK_WriteReg(R5, 0x00000000)  returns 0x00 (0000ms, 0647ms total)
T57E4 022:583 JLINK_WriteReg(R6, 0x00000000)  returns 0x00 (0000ms, 0647ms total)
T57E4 022:583 JLINK_WriteReg(R7, 0x00000000)  returns 0x00 (0000ms, 0647ms total)
T57E4 022:583 JLINK_WriteReg(R8, 0x00000000)  returns 0x00 (0000ms, 0647ms total)
T57E4 022:583 JLINK_WriteReg(R9, 0x20000160)  returns 0x00 (0000ms, 0647ms total)
T57E4 022:583 JLINK_WriteReg(R10, 0x00000000)  returns 0x00 (0000ms, 0647ms total)
T57E4 022:583 JLINK_WriteReg(R11, 0x00000000)  returns 0x00 (0000ms, 0647ms total)
T57E4 022:583 JLINK_WriteReg(R12, 0x00000000)  returns 0x00 (0000ms, 0647ms total)
T57E4 022:583 JLINK_WriteReg(R13 (SP), 0x20001000)  returns 0x00 (0000ms, 0647ms total)
T57E4 022:583 JLINK_WriteReg(R14, 0x20000001)  returns 0x00 (0000ms, 0647ms total)
T57E4 022:583 JLINK_WriteReg(R15 (PC), 0x20000020)  returns 0x00 (0000ms, 0647ms total)
T57E4 022:583 JLINK_WriteReg(XPSR, 0x01000000)  returns 0x00 (0000ms, 0647ms total)
T57E4 022:583 JLINK_WriteReg(MSP, 0x20001000)  returns 0x00 (0000ms, 0647ms total)
T57E4 022:583 JLINK_WriteReg(PSP, 0x20001000)  returns 0x00 (0000ms, 0647ms total)
T57E4 022:583 JLINK_WriteReg(CFBP, 0x00000000)  returns 0x00 (0000ms, 0647ms total)
T57E4 022:583 JLINK_SetBPEx(Addr = 0x20000000, Type = 0xFFFFFFF2)  returns 0x00000002 (0000ms, 0647ms total)
T57E4 022:583 JLINK_Go() -- CPU_ReadMem(4 bytes @ 0xE0001000) (0002ms, 0649ms total)
T57E4 022:585 JLINK_IsHalted() -- CPU_ReadMem(2 bytes @ 0x20000000)  returns TRUE (0004ms, 0653ms total)
T57E4 022:589 JLINK_ReadReg(R15 (PC))  returns 0x20000000 (0000ms, 0649ms total)
T57E4 022:589 JLINK_ClrBPEx(BPHandle = 0x00000002)  returns 0x00 (0000ms, 0649ms total)
T57E4 022:589 JLINK_ReadReg(R0)  returns 0x00000001 (0000ms, 0649ms total)
T57E4 022:589 JLINK_WriteReg(R0, 0x08000000)  returns 0x00 (0000ms, 0649ms total)
T57E4 022:589 JLINK_WriteReg(R1, 0x00000800)  returns 0x00 (0000ms, 0649ms total)
T57E4 022:589 JLINK_WriteReg(R2, 0x000000FF)  returns 0x00 (0000ms, 0649ms total)
T57E4 022:589 JLINK_WriteReg(R3, 0x00000000)  returns 0x00 (0000ms, 0649ms total)
T57E4 022:589 JLINK_WriteReg(R4, 0x00000000)  returns 0x00 (0000ms, 0649ms total)
T57E4 022:589 JLINK_WriteReg(R5, 0x00000000)  returns 0x00 (0000ms, 0649ms total)
T57E4 022:589 JLINK_WriteReg(R6, 0x00000000)  returns 0x00 (0000ms, 0649ms total)
T57E4 022:589 JLINK_WriteReg(R7, 0x00000000)  returns 0x00 (0000ms, 0649ms total)
T57E4 022:589 JLINK_WriteReg(R8, 0x00000000)  returns 0x00 (0000ms, 0649ms total)
T57E4 022:589 JLINK_WriteReg(R9, 0x20000160)  returns 0x00 (0000ms, 0649ms total)
T57E4 022:589 JLINK_WriteReg(R10, 0x00000000)  returns 0x00 (0000ms, 0649ms total)
T57E4 022:590 JLINK_WriteReg(R11, 0x00000000)  returns 0x00 (0000ms, 0650ms total)
T57E4 022:590 JLINK_WriteReg(R12, 0x00000000)  returns 0x00 (0000ms, 0650ms total)
T57E4 022:590 JLINK_WriteReg(R13 (SP), 0x20001000)  returns 0x00 (0000ms, 0650ms total)
T57E4 022:590 JLINK_WriteReg(R14, 0x20000001)  returns 0x00 (0000ms, 0650ms total)
T57E4 022:590 JLINK_WriteReg(R15 (PC), 0x200000B6)  returns 0x00 (0000ms, 0650ms total)
T57E4 022:590 JLINK_WriteReg(XPSR, 0x01000000)  returns 0x00 (0000ms, 0650ms total)
T57E4 022:590 JLINK_WriteReg(MSP, 0x20001000)  returns 0x00 (0000ms, 0650ms total)
T57E4 022:590 JLINK_WriteReg(PSP, 0x20001000)  returns 0x00 (0000ms, 0650ms total)
T57E4 022:590 JLINK_WriteReg(CFBP, 0x00000000)  returns 0x00 (0000ms, 0650ms total)
T57E4 022:590 JLINK_SetBPEx(Addr = 0x20000000, Type = 0xFFFFFFF2)  returns 0x00000003 (0000ms, 0650ms total)
T57E4 022:590 JLINK_Go() -- CPU_ReadMem(4 bytes @ 0xE0001000) (0002ms, 0652ms total)
T57E4 022:592 JLINK_IsHalted()  returns FALSE (0000ms, 0652ms total)
T57E4 022:614 JLINK_IsHalted() -- CPU_ReadMem(2 bytes @ 0x20000000)  returns TRUE (0003ms, 0655ms total)
T57E4 022:617 JLINK_ReadReg(R15 (PC))  returns 0x20000000 (0000ms, 0652ms total)
T57E4 022:617 JLINK_ClrBPEx(BPHandle = 0x00000003)  returns 0x00 (0000ms, 0652ms total)
T57E4 022:617 JLINK_ReadReg(R0)  returns 0x00000000 (0000ms, 0652ms total)
T57E4 022:618 JLINK_WriteReg(R0, 0x08000800)  returns 0x00 (0000ms, 0653ms total)
T57E4 022:618 JLINK_WriteReg(R1, 0x00000800)  returns 0x00 (0000ms, 0653ms total)
T57E4 022:618 JLINK_WriteReg(R2, 0x000000FF)  returns 0x00 (0000ms, 0653ms total)
T57E4 022:618 JLINK_WriteReg(R3, 0x00000000)  returns 0x00 (0000ms, 0653ms total)
T57E4 022:618 JLINK_WriteReg(R4, 0x00000000)  returns 0x00 (0000ms, 0653ms total)
T57E4 022:618 JLINK_WriteReg(R5, 0x00000000)  returns 0x00 (0000ms, 0653ms total)
T57E4 022:618 JLINK_WriteReg(R6, 0x00000000)  returns 0x00 (0000ms, 0653ms total)
T57E4 022:618 JLINK_WriteReg(R7, 0x00000000)  returns 0x00 (0000ms, 0653ms total)
T57E4 022:618 JLINK_WriteReg(R8, 0x00000000)  returns 0x00 (0000ms, 0653ms total)
T57E4 022:618 JLINK_WriteReg(R9, 0x20000160)  returns 0x00 (0000ms, 0653ms total)
T57E4 022:618 JLINK_WriteReg(R10, 0x00000000)  returns 0x00 (0000ms, 0653ms total)
T57E4 022:618 JLINK_WriteReg(R11, 0x00000000)  returns 0x00 (0000ms, 0653ms total)
T57E4 022:618 JLINK_WriteReg(R12, 0x00000000)  returns 0x00 (0000ms, 0653ms total)
T57E4 022:618 JLINK_WriteReg(R13 (SP), 0x20001000)  returns 0x00 (0000ms, 0653ms total)
T57E4 022:618 JLINK_WriteReg(R14, 0x20000001)  returns 0x00 (0000ms, 0653ms total)
T57E4 022:618 JLINK_WriteReg(R15 (PC), 0x20000020)  returns 0x00 (0000ms, 0653ms total)
T57E4 022:618 JLINK_WriteReg(XPSR, 0x01000000)  returns 0x00 (0000ms, 0653ms total)
T57E4 022:618 JLINK_WriteReg(MSP, 0x20001000)  returns 0x00 (0000ms, 0653ms total)
T57E4 022:618 JLINK_WriteReg(PSP, 0x20001000)  returns 0x00 (0000ms, 0653ms total)
T57E4 022:618 JLINK_WriteReg(CFBP, 0x00000000)  returns 0x00 (0000ms, 0653ms total)
T57E4 022:618 JLINK_SetBPEx(Addr = 0x20000000, Type = 0xFFFFFFF2)  returns 0x00000004 (0001ms, 0654ms total)
T57E4 022:619 JLINK_Go() -- CPU_ReadMem(4 bytes @ 0xE0001000) (0002ms, 0656ms total)
T57E4 022:621 JLINK_IsHalted() -- CPU_ReadMem(2 bytes @ 0x20000000)  returns TRUE (0003ms, 0659ms total)
T57E4 022:624 JLINK_ReadReg(R15 (PC))  returns 0x20000000 (0000ms, 0656ms total)
T57E4 022:624 JLINK_ClrBPEx(BPHandle = 0x00000004)  returns 0x00 (0000ms, 0656ms total)
T57E4 022:624 JLINK_ReadReg(R0)  returns 0x00000001 (0000ms, 0656ms total)
T57E4 022:624 JLINK_WriteReg(R0, 0x08000800)  returns 0x00 (0000ms, 0656ms total)
T57E4 022:624 JLINK_WriteReg(R1, 0x00000800)  returns 0x00 (0000ms, 0656ms total)
T57E4 022:624 JLINK_WriteReg(R2, 0x000000FF)  returns 0x00 (0000ms, 0656ms total)
T57E4 022:624 JLINK_WriteReg(R3, 0x00000000)  returns 0x00 (0000ms, 0656ms total)
T57E4 022:624 JLINK_WriteReg(R4, 0x00000000)  returns 0x00 (0000ms, 0656ms total)
T57E4 022:624 JLINK_WriteReg(R5, 0x00000000)  returns 0x00 (0001ms, 0657ms total)
T57E4 022:625 JLINK_WriteReg(R6, 0x00000000)  returns 0x00 (0000ms, 0657ms total)
T57E4 022:625 JLINK_WriteReg(R7, 0x00000000)  returns 0x00 (0000ms, 0657ms total)
T57E4 022:625 JLINK_WriteReg(R8, 0x00000000)  returns 0x00 (0000ms, 0657ms total)
T57E4 022:625 JLINK_WriteReg(R9, 0x20000160)  returns 0x00 (0000ms, 0657ms total)
T57E4 022:625 JLINK_WriteReg(R10, 0x00000000)  returns 0x00 (0000ms, 0657ms total)
T57E4 022:625 JLINK_WriteReg(R11, 0x00000000)  returns 0x00 (0000ms, 0657ms total)
T57E4 022:625 JLINK_WriteReg(R12, 0x00000000)  returns 0x00 (0000ms, 0657ms total)
T57E4 022:625 JLINK_WriteReg(R13 (SP), 0x20001000)  returns 0x00 (0000ms, 0657ms total)
T57E4 022:625 JLINK_WriteReg(R14, 0x20000001)  returns 0x00 (0000ms, 0657ms total)
T57E4 022:625 JLINK_WriteReg(R15 (PC), 0x200000B6)  returns 0x00 (0000ms, 0657ms total)
T57E4 022:625 JLINK_WriteReg(XPSR, 0x01000000)  returns 0x00 (0000ms, 0657ms total)
T57E4 022:625 JLINK_WriteReg(MSP, 0x20001000)  returns 0x00 (0000ms, 0657ms total)
T57E4 022:625 JLINK_WriteReg(PSP, 0x20001000)  returns 0x00 (0000ms, 0657ms total)
T57E4 022:625 JLINK_WriteReg(CFBP, 0x00000000)  returns 0x00 (0000ms, 0657ms total)
T57E4 022:625 JLINK_SetBPEx(Addr = 0x20000000, Type = 0xFFFFFFF2)  returns 0x00000005 (0000ms, 0657ms total)
T57E4 022:625 JLINK_Go() -- CPU_ReadMem(4 bytes @ 0xE0001000) (0002ms, 0659ms total)
T57E4 022:627 JLINK_IsHalted()  returns FALSE (0000ms, 0659ms total)
T57E4 022:630 JLINK_IsHalted()  returns FALSE (0000ms, 0659ms total)
T57E4 022:631 JLINK_IsHalted()  returns FALSE (0000ms, 0659ms total)
T57E4 022:634 JLINK_IsHalted()  returns FALSE (0000ms, 0659ms total)
T57E4 022:636 JLINK_IsHalted()  returns FALSE (0000ms, 0659ms total)
T57E4 022:640 JLINK_IsHalted()  returns FALSE (0000ms, 0659ms total)
T57E4 022:642 JLINK_IsHalted()  returns FALSE (0000ms, 0659ms total)
T57E4 022:645 JLINK_IsHalted()  returns FALSE (0000ms, 0659ms total)
T57E4 022:647 JLINK_IsHalted()  returns FALSE (0000ms, 0659ms total)
T57E4 022:649 JLINK_IsHalted() -- CPU_ReadMem(2 bytes @ 0x20000000)  returns TRUE (0003ms, 0662ms total)
T57E4 022:652 JLINK_ReadReg(R15 (PC))  returns 0x20000000 (0000ms, 0659ms total)
T57E4 022:652 JLINK_ClrBPEx(BPHandle = 0x00000005)  returns 0x00 (0000ms, 0659ms total)
T57E4 022:652 JLINK_ReadReg(R0)  returns 0x00000000 (0000ms, 0659ms total)
T57E4 022:653 JLINK_WriteReg(R0, 0x00000001)  returns 0x00 (0000ms, 0659ms total)
T57E4 022:653 JLINK_WriteReg(R1, 0x00000800)  returns 0x00 (0000ms, 0659ms total)
T57E4 022:653 JLINK_WriteReg(R2, 0x000000FF)  returns 0x00 (0000ms, 0659ms total)
T57E4 022:653 JLINK_WriteReg(R3, 0x00000000)  returns 0x00 (0000ms, 0659ms total)
T57E4 022:653 JLINK_WriteReg(R4, 0x00000000)  returns 0x00 (0000ms, 0659ms total)
T57E4 022:653 JLINK_WriteReg(R5, 0x00000000)  returns 0x00 (0000ms, 0659ms total)
T57E4 022:653 JLINK_WriteReg(R6, 0x00000000)  returns 0x00 (0000ms, 0659ms total)
T57E4 022:653 JLINK_WriteReg(R7, 0x00000000)  returns 0x00 (0000ms, 0659ms total)
T57E4 022:653 JLINK_WriteReg(R8, 0x00000000)  returns 0x00 (0000ms, 0659ms total)
T57E4 022:653 JLINK_WriteReg(R9, 0x20000160)  returns 0x00 (0000ms, 0659ms total)
T57E4 022:653 JLINK_WriteReg(R10, 0x00000000)  returns 0x00 (0000ms, 0659ms total)
T57E4 022:653 JLINK_WriteReg(R11, 0x00000000)  returns 0x00 (0000ms, 0659ms total)
T57E4 022:653 JLINK_WriteReg(R12, 0x00000000)  returns 0x00 (0000ms, 0659ms total)
T57E4 022:653 JLINK_WriteReg(R13 (SP), 0x20001000)  returns 0x00 (0000ms, 0659ms total)
T57E4 022:653 JLINK_WriteReg(R14, 0x20000001)  returns 0x00 (0000ms, 0659ms total)
T57E4 022:653 JLINK_WriteReg(R15 (PC), 0x2000006A)  returns 0x00 (0000ms, 0659ms total)
T57E4 022:653 JLINK_WriteReg(XPSR, 0x01000000)  returns 0x00 (0000ms, 0659ms total)
T57E4 022:653 JLINK_WriteReg(MSP, 0x20001000)  returns 0x00 (0000ms, 0659ms total)
T57E4 022:653 JLINK_WriteReg(PSP, 0x20001000)  returns 0x00 (0000ms, 0659ms total)
T57E4 022:653 JLINK_WriteReg(CFBP, 0x00000000)  returns 0x00 (0000ms, 0659ms total)
T57E4 022:653 JLINK_SetBPEx(Addr = 0x20000000, Type = 0xFFFFFFF2)  returns 0x00000006 (0000ms, 0659ms total)
T57E4 022:653 JLINK_Go() -- CPU_ReadMem(4 bytes @ 0xE0001000) (0003ms, 0662ms total)
T57E4 022:656 JLINK_IsHalted() -- CPU_ReadMem(2 bytes @ 0x20000000)  returns TRUE (0003ms, 0665ms total)
T57E4 022:659 JLINK_ReadReg(R15 (PC))  returns 0x20000000 (0000ms, 0662ms total)
T57E4 022:659 JLINK_ClrBPEx(BPHandle = 0x00000006)  returns 0x00 (0000ms, 0662ms total)
T57E4 022:659 JLINK_ReadReg(R0)  returns 0x00000000 (0000ms, 0662ms total)
T57E4 022:715 JLINK_WriteMem(0x20000000, 0x0164 Bytes, ...) - Data: 00 BE 0A E0 0D 78 2D 06 68 40 08 24 40 00 00 D3 ... -- CPU_WriteMem(356 bytes @ 0x20000000)  returns 0x164 (0004ms, 0666ms total)
T57E4 022:719 JLINK_WriteReg(R0, 0x08000000)  returns 0x00 (0000ms, 0666ms total)
T57E4 022:719 JLINK_WriteReg(R1, 0x00B71B00)  returns 0x00 (0000ms, 0666ms total)
T57E4 022:719 JLINK_WriteReg(R2, 0x00000002)  returns 0x00 (0000ms, 0666ms total)
T57E4 022:719 JLINK_WriteReg(R3, 0x00000000)  returns 0x00 (0000ms, 0666ms total)
T57E4 022:719 JLINK_WriteReg(R4, 0x00000000)  returns 0x00 (0000ms, 0666ms total)
T57E4 022:719 JLINK_WriteReg(R5, 0x00000000)  returns 0x00 (0000ms, 0666ms total)
T57E4 022:719 JLINK_WriteReg(R6, 0x00000000)  returns 0x00 (0000ms, 0666ms total)
T57E4 022:719 JLINK_WriteReg(R7, 0x00000000)  returns 0x00 (0000ms, 0666ms total)
T57E4 022:719 JLINK_WriteReg(R8, 0x00000000)  returns 0x00 (0000ms, 0666ms total)
T57E4 022:719 JLINK_WriteReg(R9, 0x20000160)  returns 0x00 (0000ms, 0666ms total)
T57E4 022:719 JLINK_WriteReg(R10, 0x00000000)  returns 0x00 (0000ms, 0666ms total)
T57E4 022:719 JLINK_WriteReg(R11, 0x00000000)  returns 0x00 (0000ms, 0666ms total)
T57E4 022:719 JLINK_WriteReg(R12, 0x00000000)  returns 0x00 (0000ms, 0666ms total)
T57E4 022:719 JLINK_WriteReg(R13 (SP), 0x20001000)  returns 0x00 (0000ms, 0666ms total)
T57E4 022:719 JLINK_WriteReg(R14, 0x20000001)  returns 0x00 (0000ms, 0666ms total)
T57E4 022:719 JLINK_WriteReg(R15 (PC), 0x20000038)  returns 0x00 (0000ms, 0666ms total)
T57E4 022:719 JLINK_WriteReg(XPSR, 0x01000000)  returns 0x00 (0000ms, 0666ms total)
T57E4 022:719 JLINK_WriteReg(MSP, 0x20001000)  returns 0x00 (0000ms, 0666ms total)
T57E4 022:719 JLINK_WriteReg(PSP, 0x20001000)  returns 0x00 (0000ms, 0666ms total)
T57E4 022:719 JLINK_WriteReg(CFBP, 0x00000000)  returns 0x00 (0000ms, 0666ms total)
T57E4 022:719 JLINK_SetBPEx(Addr = 0x20000000, Type = 0xFFFFFFF2) -- CPU_ReadMem(2 bytes @ 0x20000000)  returns 0x00000007 (0001ms, 0667ms total)
T57E4 022:720 JLINK_Go() -- CPU_WriteMem(2 bytes @ 0x20000000) -- CPU_ReadMem(4 bytes @ 0xE0001000) (0003ms, 0670ms total)
T57E4 022:723 JLINK_IsHalted() -- CPU_ReadMem(2 bytes @ 0x20000000)  returns TRUE (0003ms, 0673ms total)
T57E4 022:726 JLINK_ReadReg(R15 (PC))  returns 0x20000000 (0000ms, 0670ms total)
T57E4 022:726 JLINK_ClrBPEx(BPHandle = 0x00000007)  returns 0x00 (0000ms, 0670ms total)
T57E4 022:726 JLINK_ReadReg(R0)  returns 0x00000000 (0000ms, 0670ms total)
T57E4 022:727 JLINK_WriteMem(0x20000164, 0x029C Bytes, ...) - Data: 18 04 00 20 01 01 00 08 91 03 00 08 CD 02 00 08 ... -- CPU_WriteMem(668 bytes @ 0x20000164)  returns 0x29C (0005ms, 0675ms total)
T57E4 022:732 JLINK_WriteMem(0x20000400, 0x0164 Bytes, ...) - Data: 91 F8 03 C0 BC F1 48 0F 07 D1 00 F1 08 0C 4F F0 ... -- CPU_WriteMem(356 bytes @ 0x20000400)  returns 0x164 (0004ms, 0679ms total)
T57E4 022:736 JLINK_WriteReg(R0, 0x08000000)  returns 0x00 (0000ms, 0679ms total)
T57E4 022:736 JLINK_WriteReg(R1, 0x00000400)  returns 0x00 (0000ms, 0679ms total)
T57E4 022:736 JLINK_WriteReg(R2, 0x20000164)  returns 0x00 (0000ms, 0679ms total)
T57E4 022:736 JLINK_WriteReg(R3, 0x00000000)  returns 0x00 (0000ms, 0679ms total)
T57E4 022:736 JLINK_WriteReg(R4, 0x00000000)  returns 0x00 (0000ms, 0679ms total)
T57E4 022:736 JLINK_WriteReg(R5, 0x00000000)  returns 0x00 (0000ms, 0679ms total)
T57E4 022:736 JLINK_WriteReg(R6, 0x00000000)  returns 0x00 (0000ms, 0679ms total)
T57E4 022:736 JLINK_WriteReg(R7, 0x00000000)  returns 0x00 (0000ms, 0679ms total)
T57E4 022:736 JLINK_WriteReg(R8, 0x00000000)  returns 0x00 (0000ms, 0679ms total)
T57E4 022:736 JLINK_WriteReg(R9, 0x20000160)  returns 0x00 (0000ms, 0679ms total)
T57E4 022:736 JLINK_WriteReg(R10, 0x00000000)  returns 0x00 (0000ms, 0679ms total)
T57E4 022:736 JLINK_WriteReg(R11, 0x00000000)  returns 0x00 (0000ms, 0679ms total)
T57E4 022:736 JLINK_WriteReg(R12, 0x00000000)  returns 0x00 (0000ms, 0679ms total)
T57E4 022:736 JLINK_WriteReg(R13 (SP), 0x20001000)  returns 0x00 (0000ms, 0679ms total)
T57E4 022:736 JLINK_WriteReg(R14, 0x20000001)  returns 0x00 (0000ms, 0679ms total)
T57E4 022:736 JLINK_WriteReg(R15 (PC), 0x200000F4)  returns 0x00 (0000ms, 0679ms total)
T57E4 022:736 JLINK_WriteReg(XPSR, 0x01000000)  returns 0x00 (0000ms, 0679ms total)
T57E4 022:736 JLINK_WriteReg(MSP, 0x20001000)  returns 0x00 (0000ms, 0679ms total)
T57E4 022:736 JLINK_WriteReg(PSP, 0x20001000)  returns 0x00 (0000ms, 0679ms total)
T57E4 022:736 JLINK_WriteReg(CFBP, 0x00000000)  returns 0x00 (0000ms, 0679ms total)
T57E4 022:736 JLINK_SetBPEx(Addr = 0x20000000, Type = 0xFFFFFFF2)  returns 0x00000008 (0000ms, 0679ms total)
T57E4 022:736 JLINK_Go() -- CPU_ReadMem(4 bytes @ 0xE0001000) (0002ms, 0681ms total)
T57E4 022:738 JLINK_IsHalted()  returns FALSE (0001ms, 0682ms total)
T57E4 022:743 JLINK_IsHalted()  returns FALSE (0000ms, 0681ms total)
T57E4 022:745 JLINK_IsHalted()  returns FALSE (0000ms, 0681ms total)
T57E4 022:747 JLINK_IsHalted()  returns FALSE (0000ms, 0681ms total)
T57E4 022:749 JLINK_IsHalted()  returns FALSE (0000ms, 0681ms total)
T57E4 022:751 JLINK_IsHalted()  returns FALSE (0000ms, 0681ms total)
T57E4 022:753 JLINK_IsHalted()  returns FALSE (0000ms, 0681ms total)
T57E4 022:755 JLINK_IsHalted()  returns FALSE (0000ms, 0681ms total)
T57E4 022:757 JLINK_IsHalted()  returns FALSE (0000ms, 0681ms total)
T57E4 022:759 JLINK_IsHalted()  returns FALSE (0000ms, 0681ms total)
T57E4 022:761 JLINK_IsHalted()  returns FALSE (0000ms, 0681ms total)
T57E4 022:763 JLINK_IsHalted()  returns FALSE (0000ms, 0681ms total)
T57E4 022:765 JLINK_IsHalted()  returns FALSE (0000ms, 0681ms total)
T57E4 022:767 JLINK_IsHalted()  returns FALSE (0000ms, 0681ms total)
T57E4 022:769 JLINK_IsHalted()  returns FALSE (0000ms, 0681ms total)
T57E4 022:771 JLINK_IsHalted() -- CPU_ReadMem(2 bytes @ 0x20000000)  returns TRUE (0003ms, 0684ms total)
T57E4 022:774 JLINK_ReadReg(R15 (PC))  returns 0x20000000 (0000ms, 0681ms total)
T57E4 022:774 JLINK_ClrBPEx(BPHandle = 0x00000008)  returns 0x00 (0000ms, 0681ms total)
T57E4 022:774 JLINK_ReadReg(R0)  returns 0x00000000 (0000ms, 0681ms total)
T57E4 022:775 JLINK_WriteMem(0x20000164, 0x029C Bytes, ...) - Data: 80 E1 00 E0 02 49 01 43 02 4A 11 60 70 47 00 00 ... -- CPU_WriteMem(668 bytes @ 0x20000164)  returns 0x29C (0006ms, 0687ms total)
T57E4 022:781 JLINK_WriteMem(0x20000400, 0x0164 Bytes, ...) - Data: FF F7 7A FE 01 21 03 48 00 F0 93 F9 07 B0 00 BD ... -- CPU_WriteMem(356 bytes @ 0x20000400)  returns 0x164 (0003ms, 0690ms total)
T57E4 022:784 JLINK_WriteReg(R0, 0x08000400)  returns 0x00 (0000ms, 0690ms total)
T57E4 022:784 JLINK_WriteReg(R1, 0x00000400)  returns 0x00 (0000ms, 0690ms total)
T57E4 022:784 JLINK_WriteReg(R2, 0x20000164)  returns 0x00 (0000ms, 0690ms total)
T57E4 022:784 JLINK_WriteReg(R3, 0x00000000)  returns 0x00 (0000ms, 0690ms total)
T57E4 022:784 JLINK_WriteReg(R4, 0x00000000)  returns 0x00 (0000ms, 0690ms total)
T57E4 022:784 JLINK_WriteReg(R5, 0x00000000)  returns 0x00 (0000ms, 0690ms total)
T57E4 022:784 JLINK_WriteReg(R6, 0x00000000)  returns 0x00 (0000ms, 0690ms total)
T57E4 022:784 JLINK_WriteReg(R7, 0x00000000)  returns 0x00 (0000ms, 0690ms total)
T57E4 022:784 JLINK_WriteReg(R8, 0x00000000)  returns 0x00 (0000ms, 0690ms total)
T57E4 022:784 JLINK_WriteReg(R9, 0x20000160)  returns 0x00 (0000ms, 0690ms total)
T57E4 022:784 JLINK_WriteReg(R10, 0x00000000)  returns 0x00 (0000ms, 0690ms total)
T57E4 022:784 JLINK_WriteReg(R11, 0x00000000)  returns 0x00 (0000ms, 0690ms total)
T57E4 022:784 JLINK_WriteReg(R12, 0x00000000)  returns 0x00 (0000ms, 0690ms total)
T57E4 022:784 JLINK_WriteReg(R13 (SP), 0x20001000)  returns 0x00 (0000ms, 0690ms total)
T57E4 022:784 JLINK_WriteReg(R14, 0x20000001)  returns 0x00 (0001ms, 0691ms total)
T57E4 022:785 JLINK_WriteReg(R15 (PC), 0x200000F4)  returns 0x00 (0000ms, 0691ms total)
T57E4 022:785 JLINK_WriteReg(XPSR, 0x01000000)  returns 0x00 (0000ms, 0691ms total)
T57E4 022:785 JLINK_WriteReg(MSP, 0x20001000)  returns 0x00 (0000ms, 0691ms total)
T57E4 022:785 JLINK_WriteReg(PSP, 0x20001000)  returns 0x00 (0000ms, 0691ms total)
T57E4 022:785 JLINK_WriteReg(CFBP, 0x00000000)  returns 0x00 (0000ms, 0691ms total)
T57E4 022:785 JLINK_SetBPEx(Addr = 0x20000000, Type = 0xFFFFFFF2)  returns 0x00000009 (0000ms, 0691ms total)
T57E4 022:785 JLINK_Go() -- CPU_ReadMem(4 bytes @ 0xE0001000) (0002ms, 0693ms total)
T57E4 022:787 JLINK_IsHalted()  returns FALSE (0000ms, 0693ms total)
T57E4 022:790 JLINK_IsHalted()  returns FALSE (0000ms, 0693ms total)
T57E4 022:792 JLINK_IsHalted()  returns FALSE (0000ms, 0693ms total)
T57E4 022:794 JLINK_IsHalted()  returns FALSE (0000ms, 0693ms total)
T57E4 022:796 JLINK_IsHalted()  returns FALSE (0000ms, 0693ms total)
T57E4 022:798 JLINK_IsHalted()  returns FALSE (0000ms, 0693ms total)
T57E4 022:800 JLINK_IsHalted()  returns FALSE (0000ms, 0693ms total)
T57E4 022:802 JLINK_IsHalted()  returns FALSE (0000ms, 0693ms total)
T57E4 022:804 JLINK_IsHalted()  returns FALSE (0000ms, 0693ms total)
T57E4 022:807 JLINK_IsHalted()  returns FALSE (0000ms, 0693ms total)
T57E4 022:809 JLINK_IsHalted()  returns FALSE (0000ms, 0693ms total)
T57E4 022:811 JLINK_IsHalted()  returns FALSE (0000ms, 0693ms total)
T57E4 022:813 JLINK_IsHalted()  returns FALSE (0000ms, 0693ms total)
T57E4 022:815 JLINK_IsHalted()  returns FALSE (0000ms, 0693ms total)
T57E4 022:817 JLINK_IsHalted()  returns FALSE (0000ms, 0693ms total)
T57E4 022:819 JLINK_IsHalted() -- CPU_ReadMem(2 bytes @ 0x20000000)  returns TRUE (0004ms, 0697ms total)
T57E4 022:823 JLINK_ReadReg(R15 (PC))  returns 0x20000000 (0000ms, 0693ms total)
T57E4 022:823 JLINK_ClrBPEx(BPHandle = 0x00000009)  returns 0x00 (0000ms, 0693ms total)
T57E4 022:823 JLINK_ReadReg(R0)  returns 0x00000000 (0000ms, 0693ms total)
T57E4 022:823 JLINK_WriteMem(0x20000164, 0x029C Bytes, ...) - Data: 21 B1 02 88 42 F0 01 02 02 80 04 E0 02 88 4F F6 ... -- CPU_WriteMem(668 bytes @ 0x20000164)  returns 0x29C (0006ms, 0699ms total)
T57E4 022:829 JLINK_WriteMem(0x20000400, 0x0164 Bytes, ...) - Data: 00 BF 2F 46 2C 8A 4C F6 FF 70 04 40 F0 88 04 43 ... -- CPU_WriteMem(356 bytes @ 0x20000400)  returns 0x164 (0003ms, 0702ms total)
T57E4 022:832 JLINK_WriteReg(R0, 0x08000800)  returns 0x00 (0000ms, 0702ms total)
T57E4 022:832 JLINK_WriteReg(R1, 0x00000400)  returns 0x00 (0000ms, 0702ms total)
T57E4 022:832 JLINK_WriteReg(R2, 0x20000164)  returns 0x00 (0000ms, 0702ms total)
T57E4 022:832 JLINK_WriteReg(R3, 0x00000000)  returns 0x00 (0000ms, 0702ms total)
T57E4 022:832 JLINK_WriteReg(R4, 0x00000000)  returns 0x00 (0001ms, 0703ms total)
T57E4 022:833 JLINK_WriteReg(R5, 0x00000000)  returns 0x00 (0000ms, 0703ms total)
T57E4 022:833 JLINK_WriteReg(R6, 0x00000000)  returns 0x00 (0000ms, 0703ms total)
T57E4 022:833 JLINK_WriteReg(R7, 0x00000000)  returns 0x00 (0000ms, 0703ms total)
T57E4 022:833 JLINK_WriteReg(R8, 0x00000000)  returns 0x00 (0000ms, 0703ms total)
T57E4 022:833 JLINK_WriteReg(R9, 0x20000160)  returns 0x00 (0000ms, 0703ms total)
T57E4 022:833 JLINK_WriteReg(R10, 0x00000000)  returns 0x00 (0000ms, 0703ms total)
T57E4 022:833 JLINK_WriteReg(R11, 0x00000000)  returns 0x00 (0000ms, 0703ms total)
T57E4 022:833 JLINK_WriteReg(R12, 0x00000000)  returns 0x00 (0000ms, 0703ms total)
T57E4 022:833 JLINK_WriteReg(R13 (SP), 0x20001000)  returns 0x00 (0000ms, 0703ms total)
T57E4 022:833 JLINK_WriteReg(R14, 0x20000001)  returns 0x00 (0000ms, 0703ms total)
T57E4 022:833 JLINK_WriteReg(R15 (PC), 0x200000F4)  returns 0x00 (0000ms, 0703ms total)
T57E4 022:833 JLINK_WriteReg(XPSR, 0x01000000)  returns 0x00 (0000ms, 0703ms total)
T57E4 022:833 JLINK_WriteReg(MSP, 0x20001000)  returns 0x00 (0000ms, 0703ms total)
T57E4 022:833 JLINK_WriteReg(PSP, 0x20001000)  returns 0x00 (0000ms, 0703ms total)
T57E4 022:833 JLINK_WriteReg(CFBP, 0x00000000)  returns 0x00 (0000ms, 0703ms total)
T57E4 022:833 JLINK_SetBPEx(Addr = 0x20000000, Type = 0xFFFFFFF2)  returns 0x0000000A (0000ms, 0703ms total)
T57E4 022:833 JLINK_Go() -- CPU_ReadMem(4 bytes @ 0xE0001000) (0003ms, 0706ms total)
T57E4 022:836 JLINK_IsHalted()  returns FALSE (0000ms, 0706ms total)
T57E4 022:839 JLINK_IsHalted()  returns FALSE (0000ms, 0706ms total)
T57E4 022:841 JLINK_IsHalted()  returns FALSE (0000ms, 0706ms total)
T57E4 022:843 JLINK_IsHalted()  returns FALSE (0000ms, 0706ms total)
T57E4 022:845 JLINK_IsHalted()  returns FALSE (0000ms, 0706ms total)
T57E4 022:847 JLINK_IsHalted()  returns FALSE (0000ms, 0706ms total)
T57E4 022:849 JLINK_IsHalted()  returns FALSE (0000ms, 0706ms total)
T57E4 022:851 JLINK_IsHalted()  returns FALSE (0000ms, 0706ms total)
T57E4 022:853 JLINK_IsHalted()  returns FALSE (0000ms, 0706ms total)
T57E4 022:855 JLINK_IsHalted()  returns FALSE (0000ms, 0706ms total)
T57E4 022:857 JLINK_IsHalted()  returns FALSE (0000ms, 0706ms total)
T57E4 022:859 JLINK_IsHalted()  returns FALSE (0000ms, 0706ms total)
T57E4 022:861 JLINK_IsHalted()  returns FALSE (0000ms, 0706ms total)
T57E4 022:863 JLINK_IsHalted()  returns FALSE (0000ms, 0706ms total)
T57E4 022:865 JLINK_IsHalted()  returns FALSE (0000ms, 0706ms total)
T57E4 022:867 JLINK_IsHalted() -- CPU_ReadMem(2 bytes @ 0x20000000)  returns TRUE (0003ms, 0709ms total)
T57E4 022:870 JLINK_ReadReg(R15 (PC))  returns 0x20000000 (0000ms, 0706ms total)
T57E4 022:870 JLINK_ClrBPEx(BPHandle = 0x0000000A)  returns 0x00 (0000ms, 0706ms total)
T57E4 022:870 JLINK_ReadReg(R0)  returns 0x00000000 (0000ms, 0706ms total)
T57E4 022:871 JLINK_WriteMem(0x20000164, 0x029C Bytes, ...) - Data: 01 02 03 04 06 07 08 09 02 04 06 08 00 00 00 00 ... -- CPU_WriteMem(668 bytes @ 0x20000164)  returns 0x29C (0006ms, 0712ms total)
T57E4 022:877 JLINK_WriteMem(0x20000400, 0x0164 Bytes, ...) - Data: FF FF FF FF FF FF FF FF FF FF FF FF FF FF FF FF ... -- CPU_WriteMem(356 bytes @ 0x20000400)  returns 0x164 (0003ms, 0715ms total)
T57E4 022:880 JLINK_WriteReg(R0, 0x08000C00)  returns 0x00 (0000ms, 0715ms total)
T57E4 022:880 JLINK_WriteReg(R1, 0x00000010)  returns 0x00 (0000ms, 0715ms total)
T57E4 022:880 JLINK_WriteReg(R2, 0x20000164)  returns 0x00 (0000ms, 0715ms total)
T57E4 022:880 JLINK_WriteReg(R3, 0x00000000)  returns 0x00 (0000ms, 0715ms total)
T57E4 022:880 JLINK_WriteReg(R4, 0x00000000)  returns 0x00 (0000ms, 0715ms total)
T57E4 022:880 JLINK_WriteReg(R5, 0x00000000)  returns 0x00 (0000ms, 0715ms total)
T57E4 022:880 JLINK_WriteReg(R6, 0x00000000)  returns 0x00 (0000ms, 0715ms total)
T57E4 022:880 JLINK_WriteReg(R7, 0x00000000)  returns 0x00 (0001ms, 0716ms total)
T57E4 022:881 JLINK_WriteReg(R8, 0x00000000)  returns 0x00 (0000ms, 0716ms total)
T57E4 022:881 JLINK_WriteReg(R9, 0x20000160)  returns 0x00 (0000ms, 0716ms total)
T57E4 022:881 JLINK_WriteReg(R10, 0x00000000)  returns 0x00 (0000ms, 0716ms total)
T57E4 022:881 JLINK_WriteReg(R11, 0x00000000)  returns 0x00 (0000ms, 0716ms total)
T57E4 022:881 JLINK_WriteReg(R12, 0x00000000)  returns 0x00 (0000ms, 0716ms total)
T57E4 022:881 JLINK_WriteReg(R13 (SP), 0x20001000)  returns 0x00 (0000ms, 0716ms total)
T57E4 022:881 JLINK_WriteReg(R14, 0x20000001)  returns 0x00 (0000ms, 0716ms total)
T57E4 022:881 JLINK_WriteReg(R15 (PC), 0x200000F4)  returns 0x00 (0000ms, 0716ms total)
T57E4 022:881 JLINK_WriteReg(XPSR, 0x01000000)  returns 0x00 (0000ms, 0716ms total)
T57E4 022:881 JLINK_WriteReg(MSP, 0x20001000)  returns 0x00 (0000ms, 0716ms total)
T57E4 022:881 JLINK_WriteReg(PSP, 0x20001000)  returns 0x00 (0000ms, 0716ms total)
T57E4 022:881 JLINK_WriteReg(CFBP, 0x00000000)  returns 0x00 (0000ms, 0716ms total)
T57E4 022:881 JLINK_SetBPEx(Addr = 0x20000000, Type = 0xFFFFFFF2)  returns 0x0000000B (0000ms, 0716ms total)
T57E4 022:881 JLINK_Go() -- CPU_ReadMem(4 bytes @ 0xE0001000) (0002ms, 0718ms total)
T57E4 022:883 JLINK_IsHalted() -- CPU_ReadMem(2 bytes @ 0x20000000)  returns TRUE (0004ms, 0722ms total)
T57E4 022:887 JLINK_ReadReg(R15 (PC))  returns 0x20000000 (0000ms, 0718ms total)
T57E4 022:887 JLINK_ClrBPEx(BPHandle = 0x0000000B)  returns 0x00 (0000ms, 0718ms total)
T57E4 022:887 JLINK_ReadReg(R0)  returns 0x00000000 (0000ms, 0718ms total)
T57E4 022:887 JLINK_WriteReg(R0, 0x00000002)  returns 0x00 (0000ms, 0718ms total)
T57E4 022:887 JLINK_WriteReg(R1, 0x00000010)  returns 0x00 (0000ms, 0718ms total)
T57E4 022:887 JLINK_WriteReg(R2, 0x20000164)  returns 0x00 (0000ms, 0718ms total)
T57E4 022:887 JLINK_WriteReg(R3, 0x00000000)  returns 0x00 (0000ms, 0718ms total)
T57E4 022:887 JLINK_WriteReg(R4, 0x00000000)  returns 0x00 (0000ms, 0718ms total)
T57E4 022:887 JLINK_WriteReg(R5, 0x00000000)  returns 0x00 (0000ms, 0718ms total)
T57E4 022:887 JLINK_WriteReg(R6, 0x00000000)  returns 0x00 (0000ms, 0718ms total)
T57E4 022:887 JLINK_WriteReg(R7, 0x00000000)  returns 0x00 (0000ms, 0718ms total)
T57E4 022:887 JLINK_WriteReg(R8, 0x00000000)  returns 0x00 (0000ms, 0718ms total)
T57E4 022:887 JLINK_WriteReg(R9, 0x20000160)  returns 0x00 (0000ms, 0718ms total)
T57E4 022:887 JLINK_WriteReg(R10, 0x00000000)  returns 0x00 (0000ms, 0718ms total)
T57E4 022:887 JLINK_WriteReg(R11, 0x00000000)  returns 0x00 (0000ms, 0718ms total)
T57E4 022:887 JLINK_WriteReg(R12, 0x00000000)  returns 0x00 (0000ms, 0718ms total)
T57E4 022:887 JLINK_WriteReg(R13 (SP), 0x20001000)  returns 0x00 (0000ms, 0718ms total)
T57E4 022:887 JLINK_WriteReg(R14, 0x20000001)  returns 0x00 (0000ms, 0718ms total)
T57E4 022:888 JLINK_WriteReg(R15 (PC), 0x2000006A)  returns 0x00 (0000ms, 0718ms total)
T57E4 022:888 JLINK_WriteReg(XPSR, 0x01000000)  returns 0x00 (0000ms, 0718ms total)
T57E4 022:888 JLINK_WriteReg(MSP, 0x20001000)  returns 0x00 (0000ms, 0718ms total)
T57E4 022:888 JLINK_WriteReg(PSP, 0x20001000)  returns 0x00 (0000ms, 0718ms total)
T57E4 022:888 JLINK_WriteReg(CFBP, 0x00000000)  returns 0x00 (0000ms, 0718ms total)
T57E4 022:888 JLINK_SetBPEx(Addr = 0x20000000, Type = 0xFFFFFFF2)  returns 0x0000000C (0000ms, 0718ms total)
T57E4 022:888 JLINK_Go() -- CPU_ReadMem(4 bytes @ 0xE0001000) (0002ms, 0720ms total)
T57E4 022:890 JLINK_IsHalted() -- CPU_ReadMem(2 bytes @ 0x20000000)  returns TRUE (0004ms, 0724ms total)
T57E4 022:894 JLINK_ReadReg(R15 (PC))  returns 0x20000000 (0000ms, 0720ms total)
T57E4 022:894 JLINK_ClrBPEx(BPHandle = 0x0000000C)  returns 0x00 (0000ms, 0720ms total)
T57E4 022:894 JLINK_ReadReg(R0)  returns 0x00000000 (0000ms, 0720ms total)
T57E4 022:950 JLINK_WriteMem(0x20000000, 0x0164 Bytes, ...) - Data: 00 BE 0A E0 0D 78 2D 06 68 40 08 24 40 00 00 D3 ... -- CPU_WriteMem(356 bytes @ 0x20000000)  returns 0x164 (0003ms, 0723ms total)
T57E4 022:954 JLINK_WriteReg(R0, 0x08000000)  returns 0x00 (0000ms, 0723ms total)
T57E4 022:954 JLINK_WriteReg(R1, 0x00B71B00)  returns 0x00 (0000ms, 0723ms total)
T57E4 022:954 JLINK_WriteReg(R2, 0x00000003)  returns 0x00 (0000ms, 0723ms total)
T57E4 022:954 JLINK_WriteReg(R3, 0x00000000)  returns 0x00 (0000ms, 0723ms total)
T57E4 022:954 JLINK_WriteReg(R4, 0x00000000)  returns 0x00 (0000ms, 0723ms total)
T57E4 022:954 JLINK_WriteReg(R5, 0x00000000)  returns 0x00 (0000ms, 0723ms total)
T57E4 022:954 JLINK_WriteReg(R6, 0x00000000)  returns 0x00 (0000ms, 0723ms total)
T57E4 022:954 JLINK_WriteReg(R7, 0x00000000)  returns 0x00 (0000ms, 0723ms total)
T57E4 022:954 JLINK_WriteReg(R8, 0x00000000)  returns 0x00 (0000ms, 0723ms total)
T57E4 022:954 JLINK_WriteReg(R9, 0x20000160)  returns 0x00 (0000ms, 0723ms total)
T57E4 022:954 JLINK_WriteReg(R10, 0x00000000)  returns 0x00 (0000ms, 0723ms total)
T57E4 022:954 JLINK_WriteReg(R11, 0x00000000)  returns 0x00 (0000ms, 0723ms total)
T57E4 022:954 JLINK_WriteReg(R12, 0x00000000)  returns 0x00 (0000ms, 0723ms total)
T57E4 022:954 JLINK_WriteReg(R13 (SP), 0x20001000)  returns 0x00 (0000ms, 0723ms total)
T57E4 022:954 JLINK_WriteReg(R14, 0x20000001)  returns 0x00 (0000ms, 0723ms total)
T57E4 022:954 JLINK_WriteReg(R15 (PC), 0x20000038)  returns 0x00 (0000ms, 0723ms total)
T57E4 022:954 JLINK_WriteReg(XPSR, 0x01000000)  returns 0x00 (0000ms, 0723ms total)
T57E4 022:954 JLINK_WriteReg(MSP, 0x20001000)  returns 0x00 (0000ms, 0723ms total)
T57E4 022:954 JLINK_WriteReg(PSP, 0x20001000)  returns 0x00 (0000ms, 0723ms total)
T57E4 022:954 JLINK_WriteReg(CFBP, 0x00000000)  returns 0x00 (0000ms, 0723ms total)
T57E4 022:954 JLINK_SetBPEx(Addr = 0x20000000, Type = 0xFFFFFFF2) -- CPU_ReadMem(2 bytes @ 0x20000000)  returns 0x0000000D (0001ms, 0724ms total)
T57E4 022:955 JLINK_Go() -- CPU_WriteMem(2 bytes @ 0x20000000) -- CPU_ReadMem(4 bytes @ 0xE0001000) (0002ms, 0726ms total)
T57E4 022:957 JLINK_IsHalted() -- CPU_ReadMem(2 bytes @ 0x20000000)  returns TRUE (0004ms, 0730ms total)
T57E4 022:961 JLINK_ReadReg(R15 (PC))  returns 0x20000000 (0000ms, 0726ms total)
T57E4 022:961 JLINK_ClrBPEx(BPHandle = 0x0000000D)  returns 0x00 (0000ms, 0726ms total)
T57E4 022:961 JLINK_ReadReg(R0)  returns 0x00000000 (0000ms, 0726ms total)
T57E4 022:961 JLINK_WriteReg(R0, 0xFFFFFFFF)  returns 0x00 (0000ms, 0726ms total)
T57E4 022:961 JLINK_WriteReg(R1, 0x08000000)  returns 0x00 (0000ms, 0726ms total)
T57E4 022:961 JLINK_WriteReg(R2, 0x00000C10)  returns 0x00 (0000ms, 0726ms total)
T57E4 022:961 JLINK_WriteReg(R3, 0x04C11DB7)  returns 0x00 (0000ms, 0726ms total)
T57E4 022:961 JLINK_WriteReg(R4, 0x00000000)  returns 0x00 (0000ms, 0726ms total)
T57E4 022:961 JLINK_WriteReg(R5, 0x00000000)  returns 0x00 (0000ms, 0726ms total)
T57E4 022:961 JLINK_WriteReg(R6, 0x00000000)  returns 0x00 (0000ms, 0726ms total)
T57E4 022:961 JLINK_WriteReg(R7, 0x00000000)  returns 0x00 (0000ms, 0726ms total)
T57E4 022:961 JLINK_WriteReg(R8, 0x00000000)  returns 0x00 (0000ms, 0726ms total)
T57E4 022:961 JLINK_WriteReg(R9, 0x20000160)  returns 0x00 (0000ms, 0726ms total)
T57E4 022:961 JLINK_WriteReg(R10, 0x00000000)  returns 0x00 (0000ms, 0726ms total)
T57E4 022:961 JLINK_WriteReg(R11, 0x00000000)  returns 0x00 (0000ms, 0726ms total)
T57E4 022:961 JLINK_WriteReg(R12, 0x00000000)  returns 0x00 (0000ms, 0726ms total)
T57E4 022:961 JLINK_WriteReg(R13 (SP), 0x20001000)  returns 0x00 (0000ms, 0726ms total)
T57E4 022:961 JLINK_WriteReg(R14, 0x20000001)  returns 0x00 (0000ms, 0726ms total)
T57E4 022:961 JLINK_WriteReg(R15 (PC), 0x20000002)  returns 0x00 (0000ms, 0726ms total)
T57E4 022:961 JLINK_WriteReg(XPSR, 0x01000000)  returns 0x00 (0000ms, 0726ms total)
T57E4 022:961 JLINK_WriteReg(MSP, 0x20001000)  returns 0x00 (0000ms, 0726ms total)
T57E4 022:961 JLINK_WriteReg(PSP, 0x20001000)  returns 0x00 (0000ms, 0726ms total)
T57E4 022:961 JLINK_WriteReg(CFBP, 0x00000000)  returns 0x00 (0000ms, 0726ms total)
T57E4 022:961 JLINK_SetBPEx(Addr = 0x20000000, Type = 0xFFFFFFF2)  returns 0x0000000E (0001ms, 0727ms total)
T57E4 022:962 JLINK_Go() -- CPU_ReadMem(4 bytes @ 0xE0001000) (0002ms, 0729ms total)
T57E4 022:964 JLINK_IsHalted()  returns FALSE (0000ms, 0729ms total)
T57E4 022:969 JLINK_IsHalted()  returns FALSE (0000ms, 0729ms total)
T57E4 022:971 JLINK_IsHalted()  returns FALSE (0000ms, 0729ms total)
T57E4 022:973 JLINK_IsHalted()  returns FALSE (0000ms, 0729ms total)
T57E4 022:975 JLINK_IsHalted()  returns FALSE (0000ms, 0729ms total)
T57E4 022:977 JLINK_IsHalted()  returns FALSE (0000ms, 0729ms total)
T57E4 022:979 JLINK_IsHalted()  returns FALSE (0000ms, 0729ms total)
T57E4 022:981 JLINK_IsHalted()  returns FALSE (0000ms, 0729ms total)
T57E4 022:983 JLINK_IsHalted()  returns FALSE (0000ms, 0729ms total)
T57E4 022:985 JLINK_IsHalted()  returns FALSE (0000ms, 0729ms total)
T57E4 022:987 JLINK_IsHalted()  returns FALSE (0000ms, 0729ms total)
T57E4 022:989 JLINK_IsHalted()  returns FALSE (0000ms, 0729ms total)
T57E4 022:991 JLINK_IsHalted()  returns FALSE (0000ms, 0729ms total)
T57E4 022:995 JLINK_IsHalted()  returns FALSE (0000ms, 0729ms total)
T57E4 022:997 JLINK_IsHalted()  returns FALSE (0000ms, 0729ms total)
T57E4 022:999 JLINK_IsHalted() -- CPU_ReadMem(2 bytes @ 0x20000000)  returns TRUE (0003ms, 0732ms total)
T57E4 023:002 JLINK_ReadReg(R15 (PC))  returns 0x20000000 (0000ms, 0729ms total)
T57E4 023:002 JLINK_ClrBPEx(BPHandle = 0x0000000E)  returns 0x00 (0000ms, 0729ms total)
T57E4 023:002 JLINK_ReadReg(R0)  returns 0xAE177EF1 (0000ms, 0729ms total)
T57E4 023:003 JLINK_WriteReg(R0, 0x00000003)  returns 0x00 (0000ms, 0729ms total)
T57E4 023:003 JLINK_WriteReg(R1, 0x08000000)  returns 0x00 (0000ms, 0729ms total)
T57E4 023:003 JLINK_WriteReg(R2, 0x00000C10)  returns 0x00 (0000ms, 0729ms total)
T57E4 023:003 JLINK_WriteReg(R3, 0x04C11DB7)  returns 0x00 (0000ms, 0729ms total)
T57E4 023:003 JLINK_WriteReg(R4, 0x00000000)  returns 0x00 (0000ms, 0729ms total)
T57E4 023:003 JLINK_WriteReg(R5, 0x00000000)  returns 0x00 (0000ms, 0729ms total)
T57E4 023:003 JLINK_WriteReg(R6, 0x00000000)  returns 0x00 (0000ms, 0729ms total)
T57E4 023:003 JLINK_WriteReg(R7, 0x00000000)  returns 0x00 (0000ms, 0729ms total)
T57E4 023:003 JLINK_WriteReg(R8, 0x00000000)  returns 0x00 (0000ms, 0729ms total)
T57E4 023:003 JLINK_WriteReg(R9, 0x20000160)  returns 0x00 (0000ms, 0729ms total)
T57E4 023:003 JLINK_WriteReg(R10, 0x00000000)  returns 0x00 (0000ms, 0729ms total)
T57E4 023:003 JLINK_WriteReg(R11, 0x00000000)  returns 0x00 (0000ms, 0729ms total)
T57E4 023:003 JLINK_WriteReg(R12, 0x00000000)  returns 0x00 (0000ms, 0729ms total)
T57E4 023:003 JLINK_WriteReg(R13 (SP), 0x20001000)  returns 0x00 (0000ms, 0729ms total)
T57E4 023:003 JLINK_WriteReg(R14, 0x20000001)  returns 0x00 (0000ms, 0729ms total)
T57E4 023:003 JLINK_WriteReg(R15 (PC), 0x2000006A)  returns 0x00 (0000ms, 0729ms total)
T57E4 023:003 JLINK_WriteReg(XPSR, 0x01000000)  returns 0x00 (0000ms, 0729ms total)
T57E4 023:003 JLINK_WriteReg(MSP, 0x20001000)  returns 0x00 (0000ms, 0729ms total)
T57E4 023:003 JLINK_WriteReg(PSP, 0x20001000)  returns 0x00 (0000ms, 0729ms total)
T57E4 023:003 JLINK_WriteReg(CFBP, 0x00000000)  returns 0x00 (0000ms, 0729ms total)
T57E4 023:003 JLINK_SetBPEx(Addr = 0x20000000, Type = 0xFFFFFFF2)  returns 0x0000000F (0000ms, 0729ms total)
T57E4 023:003 JLINK_Go() -- CPU_ReadMem(4 bytes @ 0xE0001000) (0002ms, 0731ms total)
T57E4 023:005 JLINK_IsHalted() -- CPU_ReadMem(2 bytes @ 0x20000000)  returns TRUE (0004ms, 0735ms total)
T57E4 023:009 JLINK_ReadReg(R15 (PC))  returns 0x20000000 (0000ms, 0731ms total)
T57E4 023:009 JLINK_ClrBPEx(BPHandle = 0x0000000F)  returns 0x00 (0000ms, 0731ms total)
T57E4 023:009 JLINK_ReadReg(R0)  returns 0x00000000 (0000ms, 0731ms total)
